time	V(vout)	V(vpre)
0.000000000000000e+000	-2.471974e-005	1.800000e+000
3.670580351971305e-007	-2.471975e-005	1.800000e+000
7.341160703942610e-007	-2.471974e-005	1.800000e+000
1.101174105591391e-006	-2.471973e-005	1.800000e+000
1.468232140788522e-006	-2.471970e-005	1.800000e+000
1.835290175985653e-006	-2.471966e-005	1.800000e+000
2.202348211182783e-006	-2.471962e-005	1.800000e+000
2.569406246379912e-006	-2.471956e-005	1.800000e+000
2.862374996379912e-006	-2.471951e-005	1.800000e+000
3.280901782094198e-006	-2.471943e-005	1.800000e+000
3.699428567808485e-006	-2.471936e-005	1.800000e+000
4.117955353522771e-006	-2.471928e-005	1.800000e+000
4.536482139237058e-006	-2.471920e-005	1.800000e+000
4.955008924951344e-006	-2.471912e-005	1.800000e+000
5.373535710665630e-006	-2.471903e-005	1.800000e+000
5.792062496379916e-006	-2.471895e-005	1.800000e+000
6.393196425468499e-006	-2.471883e-005	1.800000e+000
6.994330354557083e-006	-2.471871e-005	1.800000e+000
7.595464283645668e-006	-2.471860e-005	1.800000e+000
8.196598212734251e-006	-2.471848e-005	1.800000e+000
8.797732141822834e-006	-2.471837e-005	1.800000e+000
9.398866070911419e-006	-2.471826e-005	1.800000e+000
1.000000000000000e-005	-2.471815e-005	1.800000e+000
1.000010000000000e-005	-2.471815e-005	1.620000e+000
1.000030000000000e-005	-2.471815e-005	1.260000e+000
1.000035000000000e-005	-2.471815e-005	1.170000e+000
1.000045000000000e-005	-2.471815e-005	9.900000e-001
1.000045627495070e-005	-2.471815e-005	9.787051e-001
1.000046882485210e-005	-2.471815e-005	9.561152e-001
1.000049392465488e-005	-2.471815e-005	9.109356e-001
1.000049549965504e-005	-2.471815e-005	9.081006e-001
1.000049864965535e-005	-2.471815e-005	9.024306e-001
1.000050494965598e-005	-2.471815e-005	8.910906e-001
1.000050544380836e-005	-2.471815e-005	8.902012e-001
1.000050564146931e-005	-2.471815e-005	8.898454e-001
1.000050578971503e-005	-2.471815e-005	8.895785e-001
1.000050598737598e-005	-2.471815e-005	8.892227e-001
1.000050599355288e-005	-2.471815e-005	8.892116e-001
1.000050600590669e-005	-2.471815e-005	8.891894e-001
1.000050600899514e-005	-2.471815e-005	8.891838e-001
1.000050601517205e-005	-2.471815e-005	8.891727e-001
1.000050602752586e-005	-2.471815e-005	8.891504e-001
1.000050602767063e-005	-2.471815e-005	8.891502e-001
1.000050602786366e-005	-2.471815e-005	8.891498e-001
1.000050602786969e-005	-2.471815e-005	8.891498e-001
1.000050602788176e-005	-2.471815e-005	8.891498e-001
1.000050602788477e-005	-2.471815e-005	8.891498e-001
1.000050602789080e-005	-2.471815e-005	8.891498e-001
1.000050602789331e-005	-2.471815e-005	8.891498e-001
1.000050602789631e-005	-2.471815e-005	8.891498e-001
1.000050602789831e-005	-2.471815e-005	8.891498e-001
1.000050602789931e-005	-2.471815e-005	8.891498e-001
1.000050602792875e-005	-2.471815e-005	8.891497e-001
1.000050602816430e-005	-2.471815e-005	8.891493e-001
1.000050602816530e-005	-2.471815e-005	8.891493e-001
1.000050602840084e-005	-2.471815e-005	8.891489e-001
1.000050602863639e-005	-2.471815e-005	8.891485e-001
1.000050602887193e-005	-2.471815e-005	8.891481e-001
1.000050602890137e-005	-2.471815e-005	8.891480e-001
1.000050602893082e-005	-2.471815e-005	8.891479e-001
1.000050602893182e-005	-2.471815e-005	8.891479e-001
1.000050602893550e-005	-2.471815e-005	8.891479e-001
1.000050603082353e-005	-2.471815e-005	8.891445e-001
1.000050603085297e-005	-2.471815e-005	8.891445e-001
1.000050603088241e-005	-2.471815e-005	8.891444e-001
1.000050603088609e-005	-2.471815e-005	8.891444e-001
1.000050603088977e-005	-2.471815e-005	8.891444e-001
1.000050603089077e-005	-2.471815e-005	8.891444e-001
1.000050603089445e-005	-2.471815e-005	8.891444e-001
1.000050603089813e-005	-2.471815e-005	8.891444e-001
1.000050603089913e-005	-2.471815e-005	8.891444e-001
1.000050603090281e-005	-2.471815e-005	8.891444e-001
1.000050603090381e-005	-2.471815e-005	8.891444e-001
1.000050603090481e-005	-2.471815e-005	8.891444e-001
1.000050603278915e-005	-2.471815e-005	8.891410e-001
1.000050603467349e-005	-2.471815e-005	8.891376e-001
1.000050603470293e-005	-2.471815e-005	8.891375e-001
1.000050603473237e-005	-2.471815e-005	8.891375e-001
1.000050603476182e-005	-2.471815e-005	8.891374e-001
1.000050603476550e-005	-2.471815e-005	8.891374e-001
1.000050603479494e-005	-2.471815e-005	8.891374e-001
1.000050603482438e-005	-2.471815e-005	8.891373e-001
1.000050603485382e-005	-2.471815e-005	8.891373e-001
1.000050603485750e-005	-2.471815e-005	8.891373e-001
1.000050603485850e-005	-2.471815e-005	8.891373e-001
1.000050603485950e-005	-2.471815e-005	8.891373e-001
1.000050603486418e-005	-2.471815e-005	8.891373e-001
1.000050603486786e-005	-2.471815e-005	8.891372e-001
1.000050603675219e-005	-2.471815e-005	8.891339e-001
1.000050603863651e-005	-2.471815e-005	8.891305e-001
1.000050604052082e-005	-2.471815e-005	8.891271e-001
1.000050604240513e-005	-2.471815e-005	8.891237e-001
1.000050604264067e-005	-2.471815e-005	8.891233e-001
1.000050604267011e-005	-2.471815e-005	8.891232e-001
1.000050605774449e-005	-2.471815e-005	8.890961e-001
1.000050605798002e-005	-2.471815e-005	8.890957e-001
1.000050605821555e-005	-2.471815e-005	8.890952e-001
1.000050605845108e-005	-2.471815e-005	8.890948e-001
1.000050605868661e-005	-2.471815e-005	8.890944e-001
1.000050605892214e-005	-2.471815e-005	8.890939e-001
1.000050605895158e-005	-2.471815e-005	8.890939e-001
1.000050605898102e-005	-2.471815e-005	8.890938e-001
1.000050605901046e-005	-2.471815e-005	8.890938e-001
1.000050605903990e-005	-2.471815e-005	8.890938e-001
1.000050605904190e-005	-2.471815e-005	8.890937e-001
1.000050607411578e-005	-2.471815e-005	8.890666e-001
1.000050608918920e-005	-2.471815e-005	8.890395e-001
1.000050609107332e-005	-2.471815e-005	8.890361e-001
1.000050609130884e-005	-2.471815e-005	8.890356e-001
1.000050609154435e-005	-2.471815e-005	8.890352e-001
1.000050609157379e-005	-2.471815e-005	8.890352e-001
1.000050609160323e-005	-2.471815e-005	8.890351e-001
1.000050609163267e-005	-2.471815e-005	8.890350e-001
1.000050609166211e-005	-2.471815e-005	8.890350e-001
1.000050609169155e-005	-2.471815e-005	8.890349e-001
1.000050609169523e-005	-2.471815e-005	8.890349e-001
1.000050609169891e-005	-2.471815e-005	8.890349e-001
1.000050610677179e-005	-2.471815e-005	8.890078e-001
1.000050612184422e-005	-2.471815e-005	8.889807e-001
1.000050613691618e-005	-2.471815e-005	8.889536e-001
1.000050615198769e-005	-2.471815e-005	8.889264e-001
1.000050615387157e-005	-2.471815e-005	8.889230e-001
1.000050615575544e-005	-2.471815e-005	8.889197e-001
1.000050615599093e-005	-2.471815e-005	8.889192e-001
1.000050615622641e-005	-2.471815e-005	8.889188e-001
1.000050615646189e-005	-2.471815e-005	8.889183e-001
1.000050615669738e-005	-2.471815e-005	8.889179e-001
1.000050615693286e-005	-2.471815e-005	8.889175e-001
1.000050615716834e-005	-2.471815e-005	8.889171e-001
1.000050615719778e-005	-2.471815e-005	8.889170e-001
1.000050615722721e-005	-2.471815e-005	8.889170e-001
1.000050615725665e-005	-2.471815e-005	8.889169e-001
1.000050615726033e-005	-2.471815e-005	8.889169e-001
1.000050615726401e-005	-2.471815e-005	8.889169e-001
1.000050627783108e-005	-2.471815e-005	8.886999e-001
1.000050627971448e-005	-2.471815e-005	8.886965e-001
1.000050628159788e-005	-2.471815e-005	8.886931e-001
1.000050628536464e-005	-2.471815e-005	8.886864e-001
1.000050628724802e-005	-2.471815e-005	8.886830e-001
1.000050628748344e-005	-2.471815e-005	8.886825e-001
1.000050628771886e-005	-2.471815e-005	8.886821e-001
1.000050628795428e-005	-2.471815e-005	8.886817e-001
1.000050628795896e-005	-2.471815e-005	8.886817e-001
1.000050628796263e-005	-2.471815e-005	8.886817e-001
1.000050628796999e-005	-2.471815e-005	8.886817e-001
1.000050628797367e-005	-2.471815e-005	8.886817e-001
1.000050628797735e-005	-2.471815e-005	8.886817e-001
1.000050628798102e-005	-2.471815e-005	8.886817e-001
1.000050628798470e-005	-2.471815e-005	8.886817e-001
1.000050628798838e-005	-2.471815e-005	8.886817e-001
1.000050628799306e-005	-2.471815e-005	8.886816e-001
1.000050628800041e-005	-2.471815e-005	8.886816e-001
1.000050628800409e-005	-2.471815e-005	8.886816e-001
1.000050628800777e-005	-2.471815e-005	8.886816e-001
1.000050628801144e-005	-2.471815e-005	8.886816e-001
1.000050628801512e-005	-2.471815e-005	8.886816e-001
1.000050628801880e-005	-2.471815e-005	8.886816e-001
1.000050628802616e-005	-2.471815e-005	8.886815e-001
1.000050640856131e-005	-2.471815e-005	8.884646e-001
1.000050652906703e-005	-2.471815e-005	8.882477e-001
1.000050654412657e-005	-2.471815e-005	8.882205e-001
1.000050654436186e-005	-2.471815e-005	8.882201e-001
1.000050654459716e-005	-2.471815e-005	8.882197e-001
1.000050654483246e-005	-2.471815e-005	8.882193e-001
1.000050654486187e-005	-2.471815e-005	8.882192e-001
1.000050654486555e-005	-2.471815e-005	8.882192e-001
1.000050654486922e-005	-2.471815e-005	8.882192e-001
1.000050654487290e-005	-2.471815e-005	8.882192e-001
1.000050654487657e-005	-2.471815e-005	8.882192e-001
1.000050654488025e-005	-2.471815e-005	8.882192e-001
1.000050654488760e-005	-2.471815e-005	8.882192e-001
1.000050666536004e-005	-2.471814e-005	8.880023e-001
1.000050678580307e-005	-2.471813e-005	8.877856e-001
1.000050690621669e-005	-2.471812e-005	8.875688e-001
1.000050702660092e-005	-2.471811e-005	8.873521e-001
1.000050702848146e-005	-2.471811e-005	8.873487e-001
1.000050703036200e-005	-2.471811e-005	8.873454e-001
1.000050703224253e-005	-2.471811e-005	8.873420e-001
1.000050703412305e-005	-2.471811e-005	8.873386e-001
1.000050703435811e-005	-2.471811e-005	8.873382e-001
1.000050703459318e-005	-2.471811e-005	8.873377e-001
1.000050703482824e-005	-2.471811e-005	8.873373e-001
1.000050703529837e-005	-2.471811e-005	8.873365e-001
1.000050703553343e-005	-2.471811e-005	8.873360e-001
1.000050703576850e-005	-2.471811e-005	8.873356e-001
1.000050703579788e-005	-2.471811e-005	8.873355e-001
1.000050703582726e-005	-2.471811e-005	8.873355e-001
1.000050703583094e-005	-2.471811e-005	8.873355e-001
1.000050703583461e-005	-2.471811e-005	8.873355e-001
1.000050703583828e-005	-2.471811e-005	8.873355e-001
1.000050703584195e-005	-2.471811e-005	8.873355e-001
1.000050703584563e-005	-2.471811e-005	8.873355e-001
1.000050703584930e-005	-2.471811e-005	8.873355e-001
1.000050703585664e-005	-2.471811e-005	8.873355e-001
1.000050703586032e-005	-2.471811e-005	8.873355e-001
1.000050703586399e-005	-2.471811e-005	8.873354e-001
1.000050703586766e-005	-2.471811e-005	8.873354e-001
1.000050703587134e-005	-2.471811e-005	8.873354e-001
1.000050703587868e-005	-2.471811e-005	8.873354e-001
1.000050703588235e-005	-2.471811e-005	8.873354e-001
1.000050703588603e-005	-2.471811e-005	8.873354e-001
1.000050703588970e-005	-2.471811e-005	8.873354e-001
1.000050703589337e-005	-2.471811e-005	8.873354e-001
1.000050703590072e-005	-2.471811e-005	8.873354e-001
1.000050703590439e-005	-2.471811e-005	8.873354e-001
1.000050703590806e-005	-2.471811e-005	8.873354e-001
1.000050703591174e-005	-2.471811e-005	8.873354e-001
1.000050703591541e-005	-2.471811e-005	8.873354e-001
1.000050703591908e-005	-2.471811e-005	8.873354e-001
1.000050703592643e-005	-2.471811e-005	8.873354e-001
1.000050703593010e-005	-2.471811e-005	8.873353e-001
1.000050703593744e-005	-2.471811e-005	8.873353e-001
1.000050703594112e-005	-2.471811e-005	8.873353e-001
1.000050703594479e-005	-2.471811e-005	8.873353e-001
1.000050703594846e-005	-2.471811e-005	8.873353e-001
1.000050703594946e-005	-2.471811e-005	8.873353e-001
1.000050703595681e-005	-2.471811e-005	8.873353e-001
1.000050703596048e-005	-2.471811e-005	8.873353e-001
1.000050703596148e-005	-2.471811e-005	8.873352e-001
1.000050703596248e-005	-2.471811e-005	8.873352e-001
1.000050703596615e-005	-2.471811e-005	8.873352e-001
1.000050703596982e-005	-2.471811e-005	8.873352e-001
1.000050703597350e-005	-2.471811e-005	8.873352e-001
1.000050703597450e-005	-2.471811e-005	8.873352e-001
1.000050703597817e-005	-2.471811e-005	8.873352e-001
1.000050703598184e-005	-2.471811e-005	8.873352e-001
1.000050703598552e-005	-2.471811e-005	8.873352e-001
1.000050703598651e-005	-2.471811e-005	8.873352e-001
1.000050703598751e-005	-2.471811e-005	8.873352e-001
1.000050703598851e-005	-2.471811e-005	8.873352e-001
1.000050703599051e-005	-2.471811e-005	8.873352e-001
1.000057635905435e-005	-2.776287e-005	7.625537e-001
1.000062931417255e-005	-2.731505e-005	6.672345e-001
1.000064255295211e-005	-2.684968e-005	6.434047e-001
1.000064586264699e-005	-2.674599e-005	6.374472e-001
1.000065248203677e-005	-2.655626e-005	6.255323e-001
1.000066572081632e-005	-2.623436e-005	6.017025e-001
1.000069219837543e-005	-2.576451e-005	5.540429e-001
1.000074680834108e-005	-2.508723e-005	4.557450e-001
1.000077328590018e-005	-2.494176e-005	4.080854e-001
1.000077695934124e-005	-2.492568e-005	4.014732e-001
1.000077773553401e-005	-2.428646e-005	4.000760e-001
1.000077798018622e-005	-2.349194e-005	3.996357e-001
1.000077807988865e-005	-2.325159e-005	3.994562e-001
1.000077814926549e-005	-2.325348e-005	3.993313e-001
1.000077822719085e-005	-2.325530e-005	3.991911e-001
1.000077838304156e-005	-2.325886e-005	3.989105e-001
1.000077869474298e-005	-2.326583e-005	3.983495e-001
1.000077931814582e-005	-2.327944e-005	3.972273e-001
1.000078056495150e-005	-2.330590e-005	3.949831e-001
1.000078305856287e-005	-2.335673e-005	3.904946e-001
1.000078804578560e-005	-2.345145e-005	3.815176e-001
1.000079802023106e-005	-2.361739e-005	3.635636e-001
1.000081796912198e-005	-2.387651e-005	3.276556e-001
1.000085786690381e-005	-2.421798e-005	2.558396e-001
1.000092020443633e-005	-2.450110e-005	1.436320e-001
1.000100000000000e-005	-2.467234e-005	0.000000e+000
1.000100797955637e-005	-2.467629e-005	0.000000e+000
1.000102393866910e-005	-2.468336e-005	0.000000e+000
1.000105585689457e-005	-2.469341e-005	0.000000e+000
1.000111969334551e-005	-2.470386e-005	0.000000e+000
1.000124736624739e-005	-2.471077e-005	0.000000e+000
1.000150271205114e-005	-2.471295e-005	0.000000e+000
1.000201340365865e-005	-2.471320e-005	0.000000e+000
1.000303478687368e-005	-2.471368e-005	0.000000e+000
1.000507755330372e-005	-2.471463e-005	0.000000e+000
1.000916308616380e-005	-2.471763e-005	0.000000e+000
1.001733415188398e-005	-2.473376e-005	0.000000e+000
1.003367628332432e-005	-2.482846e-005	0.000000e+000
1.006636054620500e-005	-2.530863e-005	0.000000e+000
1.013172907196637e-005	-2.682883e-005	0.000000e+000
1.013272907196637e-005	-2.685937e-005	0.000000e+000
1.013472907196637e-005	-2.693053e-005	0.000000e+000
1.013872907196637e-005	-2.707598e-005	0.000000e+000
1.016272907196636e-005	-2.800642e-005	0.000000e+000
1.018454185606731e-005	-2.891982e-005	0.000000e+000
1.020000000000000e-005	-2.959855e-005	0.000000e+000
1.020100000000000e-005	-2.964306e-005	5.241016e-013
1.020110000000000e-005	-2.964752e-005	1.800000e-001
1.020130000000000e-005	-2.965643e-005	5.400000e-001
1.020135000000000e-005	-2.965866e-005	6.300000e-001
1.020145000000000e-005	-2.966312e-005	8.100000e-001
1.020147500000000e-005	-2.966424e-005	8.550000e-001
1.020148125000000e-005	-2.966452e-005	8.662500e-001
1.020149375000000e-005	-2.966507e-005	8.887500e-001
1.020149687500000e-005	-2.966521e-005	8.943750e-001
1.020150312500000e-005	-2.966549e-005	9.056250e-001
1.020151562500000e-005	-2.966605e-005	9.281250e-001
1.020154062500000e-005	-2.966716e-005	9.731250e-001
1.020159062500000e-005	-2.966939e-005	1.063125e+000
1.020169062500000e-005	-2.967385e-005	1.243125e+000
1.020180000000000e-005	-2.967872e-005	1.440000e+000
1.020200000000000e-005	-2.968764e-005	1.800000e+000
1.020492285714285e-005	-2.981848e-005	1.800000e+000
1.020784571428571e-005	-2.994973e-005	1.800000e+000
1.021076857142856e-005	-3.008140e-005	1.800000e+000
1.021369142857141e-005	-3.021347e-005	1.800000e+000
1.021661428571426e-005	-3.034596e-005	1.800000e+000
1.021953714285711e-005	-3.047885e-005	1.800000e+000
1.022245999999996e-005	-3.061217e-005	1.800000e+000
1.024293999999993e-005	-3.154629e-005	1.800000e+000
1.028389999999986e-005	-3.338022e-005	1.800000e+000
1.036581999999971e-005	-3.680910e-005	1.800000e+000
1.046347624999971e-005	-4.036778e-005	1.800000e+000
1.056113249999971e-005	-4.321700e-005	1.800000e+000
1.065878874999971e-005	-4.532020e-005	1.800000e+000
1.075644499999971e-005	-4.672128e-005	1.800000e+000
1.085410124999971e-005	-4.745931e-005	1.800000e+000
1.095175749999971e-005	-4.754361e-005	1.800000e+000
1.104941374999971e-005	-4.695290e-005	1.800000e+000
1.114706999999971e-005	-4.564519e-005	1.800000e+000
1.124472624999971e-005	-4.357013e-005	1.800000e+000
1.134238249999970e-005	-4.067955e-005	1.800000e+000
1.144003874999970e-005	-3.693447e-005	1.800000e+000
1.153769499999970e-005	-3.230861e-005	1.800000e+000
1.163535124999970e-005	-2.678912e-005	1.800000e+000
1.173300749999970e-005	-2.037562e-005	1.800000e+000
1.183066374999970e-005	-1.307819e-005	1.800000e+000
1.192831999999970e-005	-4.915266e-006	1.800000e+000
1.202597624999970e-005	4.088470e-006	1.800000e+000
1.222128874999970e-005	2.449823e-005	1.800000e+000
1.251425749999970e-005	6.060349e-005	1.800000e+000
1.273747178571398e-005	9.300999e-005	1.800000e+000
1.296068607142827e-005	1.272418e-004	1.800000e+000
1.318390035714255e-005	1.632991e-004	1.800000e+000
1.340711464285684e-005	2.011817e-004	1.800000e+000
1.363032892857112e-005	2.408896e-004	1.800000e+000
1.385354321428540e-005	2.824229e-004	1.800000e+000
1.407675749999969e-005	3.257816e-004	1.800000e+000
1.442552982142826e-005	3.946812e-004	1.800000e+000
1.477430214285683e-005	4.623211e-004	1.800000e+000
1.512307446428540e-005	5.287013e-004	1.800000e+000
1.547184678571397e-005	5.938217e-004	1.800000e+000
1.582061910714254e-005	6.576824e-004	1.800000e+000
1.616939142857111e-005	7.202834e-004	1.800000e+000
1.651816374999967e-005	7.816246e-004	1.800000e+000
1.739706999999967e-005	9.184217e-004	1.800000e+000
1.827597624999966e-005	1.037849e-003	1.800000e+000
1.915488249999966e-005	1.139906e-003	1.800000e+000
2.003378874999965e-005	1.224593e-003	1.800000e+000
2.091269499999965e-005	1.291910e-003	1.800000e+000
2.179160124999965e-005	1.341857e-003	1.800000e+000
2.267050749999964e-005	1.374434e-003	1.800000e+000
2.356336464285677e-005	1.395507e-003	1.800000e+000
2.445622178571391e-005	1.409273e-003	1.800000e+000
2.534907892857105e-005	1.415731e-003	1.800000e+000
2.624193607142819e-005	1.414881e-003	1.800000e+000
2.713479321428533e-005	1.406724e-003	1.800000e+000
2.802765035714246e-005	1.391259e-003	1.800000e+000
2.892050749999960e-005	1.368487e-003	1.800000e+000
3.010633339285677e-005	1.333817e-003	1.800000e+000
3.129215928571394e-005	1.296781e-003	1.800000e+000
3.247798517857111e-005	1.257380e-003	1.800000e+000
3.366381107142827e-005	1.215614e-003	1.800000e+000
3.484963696428545e-005	1.171481e-003	1.800000e+000
3.603546285714262e-005	1.124983e-003	1.800000e+000
3.722128874999978e-005	1.076120e-003	1.800000e+000
3.910465928571413e-005	1.001209e-003	1.800000e+000
4.098802982142846e-005	9.296714e-004	1.800000e+000
4.287140035714281e-005	8.615075e-004	1.800000e+000
4.475477089285714e-005	7.967173e-004	1.800000e+000
4.663814142857149e-005	7.353006e-004	1.800000e+000
4.852151196428582e-005	6.772575e-004	1.800000e+000
5.040488250000016e-005	6.225880e-004	1.800000e+000
5.256727089285737e-005	5.658753e-004	1.800000e+000
5.472965928571457e-005	5.130872e-004	1.800000e+000
5.689204767857178e-005	4.642236e-004	1.800000e+000
5.905443607142898e-005	4.192846e-004	1.800000e+000
6.121682446428618e-005	3.782702e-004	1.800000e+000
6.337921285714339e-005	3.411805e-004	1.800000e+000
6.554160125000059e-005	3.080152e-004	1.800000e+000
6.563925750000060e-005	3.065556e-004	1.800000e+000
6.689483785714349e-005	2.884195e-004	1.800000e+000
6.815041821428638e-005	2.711121e-004	1.800000e+000
6.940599857142927e-005	2.546336e-004	1.800000e+000
7.066157892857218e-005	2.389838e-004	1.800000e+000
7.191715928571507e-005	2.241628e-004	1.800000e+000
7.317273964285796e-005	2.101706e-004	1.800000e+000
7.442832000000085e-005	1.970072e-004	1.800000e+000
7.569785125000089e-005	1.843744e-004	1.800000e+000
7.696738250000092e-005	1.723341e-004	1.800000e+000
7.823691375000096e-005	1.608861e-004	1.800000e+000
7.950644500000099e-005	1.500306e-004	1.800000e+000
8.077597625000103e-005	1.397676e-004	1.800000e+000
8.204550750000107e-005	1.300970e-004	1.800000e+000
